T1240 3593:325 SEGGER J-Link V4.96d Log File (0002ms, 21113ms total)
T1240 3593:325 DLL Compiled: Jan 29 2015 11:45:37 (0002ms, 21113ms total)
T1240 3593:325 Logging started @ 2019-09-12 16:38 (0002ms, 21113ms total)
T1240 3593:328 JLINK_SetWarnOutHandler(...) (0000ms, 21114ms total)
T1240 3593:328 JLINK_OpenEx(...)
Firmware: J-Link ARM V8 compiled Nov 28 2014 13:44:46
Hardware: V8.00
S/N: 20190911
Feature(s): RDI,FlashDL,FlashBP,JFlash,GDBFULL  returns O.K. (0334ms, 21448ms total)
T1240 3593:662 JLINK_GetEmuCaps()  returns 0xB9FF7BBF (0001ms, 21449ms total)
T1240 3593:675 JLINK_TIF_GetAvailable(...) (0004ms, 21453ms total)
T1240 3593:679 JLINK_SetErrorOutHandler(...) (0001ms, 21454ms total)
T1240 3593:680 JLINK_ExecCommand("ProjectFile = "Y:\SoftWork\MyStm32\ing\STM32F103RCPro\STM32F103RCT6\MDK-ARM\JLinkSettings.ini"", ...)  returns 0x00 (0006ms, 21460ms total)
T1240 3593:686 JLINK_ExecCommand("Device = STM32F103RC", ...)Device "STM32F103RC" selected.  returns 0x00 (0002ms, 21463ms total)
T1240 3593:689 JLINK_ExecCommand("DisableConnectionTimeout", ...)  returns 0x01 (0000ms, 21464ms total)
T1240 3593:690 JLINK_GetHardwareVersion()  returns 0x13880 (0001ms, 21465ms total)
T1240 3593:692 JLINK_GetDLLVersion()  returns 49604 (0001ms, 21467ms total)
T1240 3593:693 JLINK_GetFirmwareString(...) (0001ms, 21468ms total)
T1240 3593:694 JLINK_GetDLLVersion()  returns 49604 (0001ms, 21469ms total)
T1240 3593:695 JLINK_GetCompileDateTime() (0001ms, 21470ms total)
T1240 3593:696 JLINK_GetFirmwareString(...) (0001ms, 21471ms total)
T1240 3593:698 JLINK_GetHardwareVersion()  returns 0x13880 (0001ms, 21473ms total)
T1240 3593:699 JLINK_TIF_Select(JLINKARM_TIF_SWD)  returns 0x00 (0015ms, 21488ms total)
T1240 3593:715 JLINK_SetSpeed(5000) (0004ms, 21493ms total)
T1240 3593:719 JLINK_GetId() >0x108 TIF>Found SWD-DP with ID 0x1BA01477 >0x0D TIF> >0x28 TIF> >0x0D TIF> >0x28 TIF> >0x0D TIF> >0x21 TIF> >0x0D TIF> >0x28 TIF> >0x0D TIF> >0x28 TIF> >0x0D TIF> >0x28 TIF> >0x0D TIF> >0x21 TIF> >0x0D TIF> >0x21 TIF> >0x0D TIF> >0x28 TIF> >0x0D TIF> >0x21 TIF> >0x0D TIF> >0x21 TIF> >0x108 TIF>Found SWD-DP with ID 0x1BA01477 >0x0D TIF> >0x21 TIF> >0x0D TIF> >0x28 TIF> >0x0D TIF> >0x28 TIF> >0x0D TIF> >0x21 TIF> >0x0D TIF> >0x28 TIF> >0x0D TIF> >0x21 TIF> >0x0D TIF>
 >0x21 TIF> >0x0D TIF> >0x21 TIF> >0x0D TIF> >0x21 TIF> >0x0D TIF> >0x28 TIF> >0x0D TIF> >0x28 TIF> >0x0D TIF> >0x21 TIF> >0x0D TIF> >0x28 TIF> >0x0D TIF> >0x28 TIF> >0x0D TIF> >0x28 TIF> >0x0D TIF> >0x21 TIF> >0x0D TIF> >0x21 TIF> >0x0D TIF> >0x28 TIF> >0x0D TIF> >0x21 TIF> >0x0D TIF> >0x21 TIF>Found Cortex-M3 r1p1, Little endian. -- CPU_WriteMem(4 bytes @ 0xE0002000) -- CPU_ReadMem(4 bytes @ 0xE000EDF0) -- CPU_ReadMem(4 bytes @ 0xE0002000)FPUnit: 6 code (BP) slots and 2 literal slots
 -- CPU_ReadMem(4 bytes @ 0xE000EDFC) -- CPU_ReadMem(4 bytes @ 0xE0001000) -- CPU_WriteMem(4 bytes @ 0xE0001000) -- CPU_ReadMem(4 bytes @ 0xE000ED88) -- CPU_WriteMem(4 bytes @ 0xE000ED88) -- CPU_ReadMem(4 bytes @ 0xE000ED88) -- CPU_WriteMem(4 bytes @ 0xE000ED88) -- CPU_ReadMem(4 bytes @ 0xE00FF010)TPIU fitted. -- CPU_ReadMem(4 bytes @ 0xE00FF014)ETM fitted. -- CPU_ReadMem(4 bytes @ 0xE00FF018) >0x0D TIF> >0x21 TIF>  returns 0x1BA01477 (0313ms, 21806ms total)
T1240 3594:032 JLINK_GetDLLVersion()  returns 49604 (0001ms, 21807ms total)
T1240 3594:033 JLINK_CORE_GetFound()  returns 0x30000FF (0004ms, 21811ms total)
T1240 3594:037 JLINK_GetDebugInfo(0x100) -- Value=0xE00FF003  returns 0x00 (0001ms, 21812ms total)
T1240 3594:039 JLINK_GetDebugInfo(0x100) -- Value=0xE00FF003  returns 0x00 (0001ms, 21814ms total)
T1240 3594:040 JLINK_GetDebugInfo(0x101)  returns 0xFFFFFFFF (0002ms, 21816ms total)
T1240 3594:042 JLINK_ReadMemEx(0xE0041FF0, 0x0010 Bytes, ..., AccessWidth = 33554436) -- CPU is running -- CPU_ReadMem(16 bytes @ 0xE0041FF0) - Data: 0D 00 00 00 90 00 00 00 05 00 00 00 B1 00 00 00  returns 0x10 (0006ms, 21822ms total)
T1240 3594:049 JLINK_ReadMemEx(0xE0041FD0, 0x0020 Bytes, ..., AccessWidth = 33554436) -- CPU is running -- CPU_ReadMem(32 bytes @ 0xE0041FD0) - Data: 04 00 00 00 00 00 00 00 00 00 00 00 00 00 00 00 ...  returns 0x20 (0004ms, 21827ms total)
T1240 3594:054 JLINK_GetDebugInfo(0x102)  returns 0xFFFFFFFF (0001ms, 21829ms total)
T1240 3594:055 JLINK_GetDebugInfo(0x103)  returns 0xFFFFFFFF (0001ms, 21830ms total)
T1240 3594:056 JLINK_ReadMemEx(0xE0040FF0, 0x0010 Bytes, ..., AccessWidth = 33554436) -- CPU is running -- CPU_ReadMem(16 bytes @ 0xE0040FF0) - Data: 0D 00 00 00 90 00 00 00 05 00 00 00 B1 00 00 00  returns 0x10 (0005ms, 21835ms total)
T1240 3594:062 JLINK_GetDebugInfo(0x104)  returns 0xFFFFFFFF (0001ms, 21837ms total)
T1240 3594:063 JLINK_GetDebugInfo(0x105)  returns 0xFFFFFFFF (0001ms, 21838ms total)
T1240 3594:064 JLINK_GetDebugInfo(0x106)  returns 0xFFFFFFFF (0001ms, 21839ms total)
T1240 3594:066 JLINK_GetDebugInfo(0x107)  returns 0xFFFFFFFF (0001ms, 21841ms total)
T1240 3594:067 JLINK_GetDebugInfo(0x10C)  returns 0xFFFFFFFF (0001ms, 21842ms total)
T1240 3594:068 JLINK_GetDebugInfo(0x01)  returns 0xFFFFFFFF (0001ms, 21843ms total)
T1240 3594:069 JLINK_GetDeviceFamily()  returns 3 (0001ms, 21844ms total)
T1240 3594:070 JLINK_ReadMemU32(0xE000ED00, 0x0001 Items, ...) -- CPU is running -- CPU_ReadMem(4 bytes @ 0xE000ED00) - Data: 31 C2 1F 41  returns 0x01 (0006ms, 21850ms total)
T1240 3594:077 JLINK_GetDebugInfo(0x10F)  returns 0xFFFFFFFF (0001ms, 21852ms total)
T1240 3594:078 JLINK_SetResetType(JLINKARM_RESET_TYPE_NORMAL)  returns JLINKARM_RESET_TYPE_NORMAL (0001ms, 21853ms total)
T1240 3594:079 JLINK_Reset() -- CPU is running -- CPU_WriteMem(4 bytes @ 0xE000EDF0) -- CPU is running -- CPU_WriteMem(4 bytes @ 0xE000EDFC) >0x35 TIF> -- CPU is running -- CPU_WriteMem(4 bytes @ 0xE000ED0C) -- CPU is running -- CPU_ReadMem(4 bytes @ 0xE000EDF0) -- CPU is running -- CPU_ReadMem(4 bytes @ 0xE000EDF0) -- CPU is running -- CPU_WriteMem(4 bytes @ 0xE000EDF0) -- CPU is running -- CPU_WriteMem(4 bytes @ 0xE000EDFC) -- CPU is running -- CPU_ReadMem(4 bytes @ 0xE000EDF0)
 -- CPU_WriteMem(4 bytes @ 0xE0002000) -- CPU_ReadMem(4 bytes @ 0xE000EDFC) -- CPU_ReadMem(4 bytes @ 0xE0001000) (0061ms, 21914ms total)
T1240 3594:141 JLINK_ReadReg(R15 (PC))  returns 0x08000144 (0001ms, 21916ms total)
T1240 3594:142 JLINK_ReadReg(XPSR)  returns 0x01000000 (0001ms, 21917ms total)
T1240 3594:144 JLINK_Halt()  returns 0x00 (0001ms, 21919ms total)
T1240 3594:145 JLINK_ReadMemU32(0xE000EDF0, 0x0001 Items, ...) -- CPU_ReadMem(4 bytes @ 0xE000EDF0) - Data: 03 00 03 00  returns 0x01 (0006ms, 21925ms total)
T1240 3594:151 JLINK_WriteU32(0xE000EDF0, 0xA05F0003) -- CPU_WriteMem(4 bytes @ 0xE000EDF0)  returns 0x00 (0007ms, 21932ms total)
T1240 3594:158 JLINK_WriteU32(0xE000EDFC, 0x01000000) -- CPU_WriteMem(4 bytes @ 0xE000EDFC)  returns 0x00 (0004ms, 21936ms total)
T1240 3594:162 JLINK_GetHWStatus(...)  returns 0x00 (0005ms, 21941ms total)
T1240 3594:168 JLINK_GetNumBPUnits(Type = 0xFFFFFF00)  returns 0x06 (0000ms, 21942ms total)
T1240 3594:169 JLINK_GetNumBPUnits(Type = 0xF0)  returns 0x2000 (0001ms, 21944ms total)
T1240 3594:170 JLINK_GetNumWPUnits()  returns 0x04 (0001ms, 21945ms total)
T1240 3594:172 JLINK_GetSpeed()  returns 0xFA0 (0001ms, 21947ms total)
T1240 3594:173 JLINK_ReadMemU32(0xE000E004, 0x0001 Items, ...) -- CPU_ReadMem(4 bytes @ 0xE000E004) - Data: 01 00 00 00  returns 0x01 (0004ms, 21951ms total)
T1240 3594:177 JLINK_ReadMemU32(0xE000E004, 0x0001 Items, ...) -- CPU_ReadMem(4 bytes @ 0xE000E004) - Data: 01 00 00 00  returns 0x01 (0006ms, 21957ms total)
T1240 3594:183 JLINK_WriteMemEx(0xE0001000, 0x001C Bytes, ..., AccessWidth = 33554436) - Data: 01 00 00 00 00 00 00 00 00 00 00 00 00 00 00 00 ... -- CPU_WriteMem(28 bytes @ 0xE0001000)  returns 0x1C (0005ms, 21962ms total)
T1240 3594:189 JLINK_ReadReg(R15 (PC))  returns 0x08000144 (0001ms, 21964ms total)
T1240 3594:190 JLINK_ReadReg(XPSR)  returns 0x01000000 (0001ms, 21965ms total)
T1240 3594:199 JLINK_ReadMemEx(0xE0001004, 0x0004 Bytes, ..., AccessWidth = 33554432)Mis-aligned memory read: Address: 0xE0001004, NumBytes: 4, Alignment: 2 (Halfword-aligned)
  ***** Mis-aligned memory read: Address: 0xE0001004, NumBytes: 4, Alignment: 2 (Halfword-aligned) -- CPU_ReadMem(4 bytes @ 0xE0001004) - Data: 00 00 00 00  returns 0x04 (0004ms, 21970ms total)
T1240 3594:325 JLINK_SetResetType(JLINKARM_RESET_TYPE_NORMAL)  returns JLINKARM_RESET_TYPE_NORMAL (0001ms, 21972ms total)
T1240 3594:326 JLINK_Reset() -- CPU_WriteMem(4 bytes @ 0xE000EDF0) -- CPU_WriteMem(4 bytes @ 0xE000EDFC) >0x35 TIF> -- CPU_WriteMem(4 bytes @ 0xE000ED0C) -- CPU_ReadMem(4 bytes @ 0xE000EDF0) -- CPU_ReadMem(4 bytes @ 0xE000EDF0) -- CPU_WriteMem(4 bytes @ 0xE000EDF0) -- CPU_WriteMem(4 bytes @ 0xE000EDFC) -- CPU is running -- CPU_ReadMem(4 bytes @ 0xE000EDF0) -- CPU_WriteMem(4 bytes @ 0xE0002000) -- CPU_ReadMem(4 bytes @ 0xE000EDFC) -- CPU_ReadMem(4 bytes @ 0xE0001000) (0070ms, 22042ms total)
T1240 3594:396 JLINK_ReadReg(R15 (PC))  returns 0x08000144 (0000ms, 22042ms total)
T1240 3594:396 JLINK_ReadReg(XPSR)  returns 0x01000000 (0000ms, 22042ms total)
T1240 3594:398 JLINK_ReadMemEx(0x08000144, 0x003C Bytes, ..., AccessWidth = 33554432)Mis-aligned memory read: Address: 0x08000144, NumBytes: 60, Alignment: 2 (Halfword-aligned)
  ***** Mis-aligned memory read: Address: 0x08000144, NumBytes: 60, Alignment: 2 (Halfword-aligned) -- CPU_ReadMem(64 bytes @ 0x08000140) -- Updating C cache (64 bytes @ 0x08000140) -- Read from C cache (60 bytes @ 0x08000144) - Data: 06 48 80 47 06 48 00 47 FE E7 FE E7 FE E7 FE E7 ...  returns 0x3C (0004ms, 22046ms total)
T1240 3594:402 JLINK_ReadMemEx(0x08000144, 0x0002 Bytes, ..., AccessWidth = 33554432)Mis-aligned memory read: Address: 0x08000144, NumBytes: 2, Alignment: 2 (Halfword-aligned)
  ***** Mis-aligned memory read: Address: 0x08000144, NumBytes: 2, Alignment: 2 (Halfword-aligned) -- Read from C cache (2 bytes @ 0x08000144) - Data: 06 48  returns 0x02 (0000ms, 22046ms total)
T1240 3594:402 JLINK_ReadMemEx(0x08000146, 0x0002 Bytes, ..., AccessWidth = 33554432)Mis-aligned memory read: Address: 0x08000146, NumBytes: 2, Alignment: 2 (Halfword-aligned)
  ***** Mis-aligned memory read: Address: 0x08000146, NumBytes: 2, Alignment: 2 (Halfword-aligned) -- Read from C cache (2 bytes @ 0x08000146) - Data: 80 47  returns 0x02 (0001ms, 22047ms total)
T1240 3594:403 JLINK_ReadMemEx(0x08000146, 0x0002 Bytes, ..., AccessWidth = 33554432)Mis-aligned memory read: Address: 0x08000146, NumBytes: 2, Alignment: 2 (Halfword-aligned)
  ***** Mis-aligned memory read: Address: 0x08000146, NumBytes: 2, Alignment: 2 (Halfword-aligned) -- Read from C cache (2 bytes @ 0x08000146) - Data: 80 47  returns 0x02 (0001ms, 22048ms total)
T1240 3594:404 JLINK_ReadMemEx(0x08000148, 0x003C Bytes, ..., AccessWidth = 33554432)Mis-aligned memory read: Address: 0x08000148, NumBytes: 60, Alignment: 2 (Halfword-aligned)
  ***** Mis-aligned memory read: Address: 0x08000148, NumBytes: 60, Alignment: 2 (Halfword-aligned) -- CPU_ReadMem(64 bytes @ 0x08000180) -- Updating C cache (64 bytes @ 0x08000180) -- Read from C cache (60 bytes @ 0x08000148) - Data: 06 48 00 47 FE E7 FE E7 FE E7 FE E7 FE E7 FE E7 ...  returns 0x3C (0002ms, 22050ms total)
T1240 3594:406 JLINK_ReadMemEx(0x08000148, 0x0002 Bytes, ..., AccessWidth = 33554432)Mis-aligned memory read: Address: 0x08000148, NumBytes: 2, Alignment: 2 (Halfword-aligned)
  ***** Mis-aligned memory read: Address: 0x08000148, NumBytes: 2, Alignment: 2 (Halfword-aligned) -- Read from C cache (2 bytes @ 0x08000148) - Data: 06 48  returns 0x02 (0000ms, 22050ms total)
T1240 3596:307 JLINK_ReadReg(R0)  returns 0x00000A1E (0016ms, 22066ms total)
T1240 3596:323 JLINK_ReadReg(R1)  returns 0x02000000 (0001ms, 22067ms total)
T1240 3596:324 JLINK_ReadReg(R2)  returns 0x00000000 (0000ms, 22067ms total)
T1240 3596:324 JLINK_ReadReg(R3)  returns 0x00000F42 (0000ms, 22067ms total)
T1240 3596:324 JLINK_ReadReg(R4)  returns 0x000003E9 (0000ms, 22067ms total)
T1240 3596:325 JLINK_ReadReg(R5)  returns 0x00000872 (0000ms, 22068ms total)
T1240 3596:325 JLINK_ReadReg(R6)  returns 0x00000000 (0000ms, 22068ms total)
T1240 3596:325 JLINK_ReadReg(R7)  returns 0x00000000 (0000ms, 22068ms total)
T1240 3596:325 JLINK_ReadReg(R8)  returns 0x00000000 (0001ms, 22069ms total)
T1240 3596:326 JLINK_ReadReg(R9)  returns 0x20000160 (0000ms, 22069ms total)
T1240 3596:326 JLINK_ReadReg(R10)  returns 0x00000000 (0001ms, 22070ms total)
T1240 3596:327 JLINK_ReadReg(R11)  returns 0x00000000 (0000ms, 22070ms total)
T1240 3596:327 JLINK_ReadReg(R12)  returns 0x00000F00 (0000ms, 22070ms total)
T1240 3596:327 JLINK_ReadReg(R13 (SP))  returns 0x20000450 (0001ms, 22071ms total)
T1240 3596:328 JLINK_ReadReg(R14)  returns 0xFFFFFFFF (0000ms, 22071ms total)
T1240 3596:328 JLINK_ReadReg(R15 (PC))  returns 0x08000144 (0000ms, 22071ms total)
T1240 3596:328 JLINK_ReadReg(XPSR)  returns 0x01000000 (0000ms, 22071ms total)
T1240 3596:328 JLINK_ReadReg(MSP)  returns 0x20000450 (0001ms, 22072ms total)
T1240 3596:329 JLINK_ReadReg(PSP)  returns 0x20001000 (0000ms, 22072ms total)
T1240 3596:329 JLINK_ReadReg(CFBP)  returns 0x00000000 (0000ms, 22072ms total)
T095C 3596:385 JLINK_ReadMemEx(0x08000144, 0x0002 Bytes, ..., AccessWidth = 33554432)Mis-aligned memory read: Address: 0x08000144, NumBytes: 2, Alignment: 2 (Halfword-aligned)
  ***** Mis-aligned memory read: Address: 0x08000144, NumBytes: 2, Alignment: 2 (Halfword-aligned) -- Read from C cache (2 bytes @ 0x08000144) - Data: 06 48  returns 0x02 (0003ms, 22075ms total)
T095C 3596:388 JLINK_SetBPEx(Addr = 0x08000E18, Type = 0xFFFFFFF2)  returns 0x00000001 (0000ms, 22075ms total)
T095C 3596:388 JLINK_SetBPEx(Addr = 0x08000E3C, Type = 0xFFFFFFF2)  returns 0x00000002 (0000ms, 22075ms total)
T095C 3596:389 JLINK_SetBPEx(Addr = 0x080001B4, Type = 0xFFFFFFF2)  returns 0x00000003 (0000ms, 22076ms total)
T095C 3596:389 JLINK_SetBPEx(Addr = 0x08000234, Type = 0xFFFFFFF2)  returns 0x00000004 (0001ms, 22077ms total)
T095C 3596:390 JLINK_SetBPEx(Addr = 0x08000214, Type = 0xFFFFFFF2)  returns 0x00000005 (0000ms, 22077ms total)
T095C 3596:390 JLINK_Go() -- CPU_WriteMem(4 bytes @ 0xE0002000) -- CPU_WriteMem(4 bytes @ 0xE0002000) -- CPU_WriteMem(4 bytes @ 0xE0002000) -- CPU_WriteMem(4 bytes @ 0xE0002000) -- CPU_WriteMem(4 bytes @ 0xE0002000) -- CPU_WriteMem(4 bytes @ 0xE0002008) -- CPU_WriteMem(4 bytes @ 0xE000200C) -- CPU_WriteMem(4 bytes @ 0xE0002010) -- CPU_WriteMem(4 bytes @ 0xE0002014) -- CPU_WriteMem(4 bytes @ 0xE0002018) -- CPU_WriteMem(4 bytes @ 0xE000201C) -- CPU_WriteMem(4 bytes @ 0xE0001004) (0054ms, 22131ms total)
T095C 3596:545 JLINK_IsHalted()  returns TRUE (0011ms, 22142ms total)
T095C 3596:556 JLINK_Halt()  returns 0x00 (0002ms, 22133ms total)
T095C 3596:558 JLINK_IsHalted()  returns TRUE (0002ms, 22135ms total)
T095C 3596:560 JLINK_IsHalted()  returns TRUE (0002ms, 22135ms total)
T095C 3596:562 JLINK_IsHalted()  returns TRUE (0001ms, 22134ms total)
T095C 3596:564 JLINK_ReadReg(R15 (PC))  returns 0x08000E18 (0001ms, 22134ms total)
T095C 3596:565 JLINK_ReadReg(XPSR)  returns 0x61000000 (0001ms, 22135ms total)
T095C 3596:568 JLINK_ClrBPEx(BPHandle = 0x00000001)  returns 0x00 (0001ms, 22138ms total)
T095C 3596:569 JLINK_ClrBPEx(BPHandle = 0x00000002)  returns 0x00 (0001ms, 22139ms total)
T095C 3596:571 JLINK_ClrBPEx(BPHandle = 0x00000003)  returns 0x00 (0001ms, 22141ms total)
T095C 3596:573 JLINK_ClrBPEx(BPHandle = 0x00000004)  returns 0x00 (0001ms, 22143ms total)
T095C 3596:574 JLINK_ClrBPEx(BPHandle = 0x00000005)  returns 0x00 (0002ms, 22145ms total)
T095C 3596:576 JLINK_ReadMemU32(0xE000ED30, 0x0001 Items, ...) -- CPU_ReadMem(4 bytes @ 0xE000ED30) - Data: 03 00 00 00  returns 0x01 (0005ms, 22150ms total)
T095C 3596:582 JLINK_ReadMemU32(0xE0001028, 0x0001 Items, ...) -- CPU_ReadMem(4 bytes @ 0xE0001028) - Data: 00 00 00 00  returns 0x01 (0006ms, 22157ms total)
T095C 3596:588 JLINK_ReadMemU32(0xE0001038, 0x0001 Items, ...) -- CPU_ReadMem(4 bytes @ 0xE0001038) - Data: 00 02 00 00  returns 0x01 (0005ms, 22162ms total)
T095C 3596:594 JLINK_ReadMemU32(0xE0001048, 0x0001 Items, ...) -- CPU_ReadMem(4 bytes @ 0xE0001048) - Data: 00 00 00 00  returns 0x01 (0005ms, 22168ms total)
T095C 3596:599 JLINK_ReadMemU32(0xE0001058, 0x0001 Items, ...) -- CPU_ReadMem(4 bytes @ 0xE0001058) - Data: 00 00 00 00  returns 0x01 (0006ms, 22174ms total)
T095C 3596:605 JLINK_ReadReg(R0)  returns 0x08000E19 (0002ms, 22176ms total)
T095C 3596:607 JLINK_ReadReg(R1)  returns 0x20000450 (0002ms, 22178ms total)
T095C 3596:609 JLINK_ReadReg(R2)  returns 0x00000000 (0001ms, 22179ms total)
T095C 3596:611 JLINK_ReadReg(R3)  returns 0x08000E0B (0002ms, 22182ms total)
T095C 3596:613 JLINK_ReadReg(R4)  returns 0x08000E84 (0002ms, 22184ms total)
T095C 3596:615 JLINK_ReadReg(R5)  returns 0x08000E84 (0002ms, 22186ms total)
T095C 3596:617 JLINK_ReadReg(R6)  returns 0x00000000 (0001ms, 22187ms total)
T095C 3596:618 JLINK_ReadReg(R7)  returns 0x00000000 (0003ms, 22190ms total)
T095C 3596:621 JLINK_ReadReg(R8)  returns 0x00000000 (0001ms, 22191ms total)
T095C 3596:622 JLINK_ReadReg(R9)  returns 0x20000160 (0002ms, 22193ms total)
T095C 3596:624 JLINK_ReadReg(R10)  returns 0x00000000 (0001ms, 22194ms total)
T095C 3596:626 JLINK_ReadReg(R11)  returns 0x00000000 (0001ms, 22196ms total)
T095C 3596:628 JLINK_ReadReg(R12)  returns 0x00000F00 (0001ms, 22198ms total)
T095C 3596:630 JLINK_ReadReg(R13 (SP))  returns 0x20000450 (0001ms, 22200ms total)
T095C 3596:632 JLINK_ReadReg(R14)  returns 0x080001A9 (0001ms, 22202ms total)
T095C 3596:634 JLINK_ReadReg(R15 (PC))  returns 0x08000E18 (0002ms, 22204ms total)
T095C 3596:636 JLINK_ReadReg(XPSR)  returns 0x61000000 (0001ms, 22205ms total)
T095C 3596:638 JLINK_ReadReg(MSP)  returns 0x20000450 (0001ms, 22207ms total)
T095C 3596:639 JLINK_ReadReg(PSP)  returns 0x20001000 (0002ms, 22209ms total)
T095C 3596:642 JLINK_ReadReg(CFBP)  returns 0x00000000 (0001ms, 22211ms total)
T1240 3596:651 JLINK_ReadMemU32(0xE0001004, 0x0001 Items, ...) -- CPU_ReadMem(4 bytes @ 0xE0001004) - Data: F0 06 00 00  returns 0x01 (0013ms, 22224ms total)
T095C 3602:961 JLINK_ReadMemEx(0x08000E18, 0x0002 Bytes, ..., AccessWidth = 33554432)Mis-aligned memory read: Address: 0x08000E18, NumBytes: 2, Alignment: 2 (Halfword-aligned)
  ***** Mis-aligned memory read: Address: 0x08000E18, NumBytes: 2, Alignment: 2 (Halfword-aligned) -- CPU_ReadMem(64 bytes @ 0x08000E00) -- Updating C cache (64 bytes @ 0x08000E00) -- Read from C cache (2 bytes @ 0x08000E18) - Data: FF F7  returns 0x02 (0015ms, 22240ms total)
T095C 3602:976 JLINK_SetBPEx(Addr = 0x08000E3C, Type = 0xFFFFFFF2)  returns 0x00000006 (0000ms, 22240ms total)
T095C 3602:976 JLINK_SetBPEx(Addr = 0x080001B4, Type = 0xFFFFFFF2)  returns 0x00000007 (0000ms, 22240ms total)
T095C 3602:976 JLINK_SetBPEx(Addr = 0x08000234, Type = 0xFFFFFFF2)  returns 0x00000008 (0000ms, 22240ms total)
T095C 3602:976 JLINK_SetBPEx(Addr = 0x08000214, Type = 0xFFFFFFF2)  returns 0x00000009 (0001ms, 22241ms total)
T095C 3602:977 JLINK_Go() -- CPU_WriteMem(4 bytes @ 0xE0002000) -- CPU_WriteMem(4 bytes @ 0xE0002000) -- CPU_WriteMem(4 bytes @ 0xE0002000) -- CPU_WriteMem(4 bytes @ 0xE0002000) -- CPU_WriteMem(4 bytes @ 0xE0002008) -- CPU_WriteMem(4 bytes @ 0xE000200C) -- CPU_WriteMem(4 bytes @ 0xE0002010) -- CPU_WriteMem(4 bytes @ 0xE0002014) -- CPU_WriteMem(4 bytes @ 0xE0002018) (0037ms, 22278ms total)
T095C 3603:115 JLINK_IsHalted()  returns TRUE (0012ms, 22290ms total)
T095C 3603:127 JLINK_Halt()  returns 0x00 (0001ms, 22279ms total)
T095C 3603:129 JLINK_IsHalted()  returns TRUE (0001ms, 22281ms total)
T095C 3603:130 JLINK_IsHalted()  returns TRUE (0002ms, 22282ms total)
T095C 3603:132 JLINK_IsHalted()  returns TRUE (0002ms, 22282ms total)
T095C 3603:134 JLINK_ReadReg(R15 (PC))  returns 0x080001B4 (0001ms, 22281ms total)
T095C 3603:135 JLINK_ReadReg(XPSR)  returns 0x61000000 (0001ms, 22282ms total)
T095C 3603:137 JLINK_ClrBPEx(BPHandle = 0x00000006)  returns 0x00 (0001ms, 22284ms total)
T095C 3603:138 JLINK_ClrBPEx(BPHandle = 0x00000007)  returns 0x00 (0002ms, 22286ms total)
T095C 3603:140 JLINK_ClrBPEx(BPHandle = 0x00000008)  returns 0x00 (0001ms, 22287ms total)
T095C 3603:142 JLINK_ClrBPEx(BPHandle = 0x00000009)  returns 0x00 (0001ms, 22289ms total)
T095C 3603:143 JLINK_ReadMemU32(0xE000ED30, 0x0001 Items, ...) -- CPU_ReadMem(4 bytes @ 0xE000ED30) - Data: 03 00 00 00  returns 0x01 (0005ms, 22294ms total)
T095C 3603:148 JLINK_ReadMemU32(0xE0001028, 0x0001 Items, ...) -- CPU_ReadMem(4 bytes @ 0xE0001028) - Data: 00 00 00 00  returns 0x01 (0006ms, 22300ms total)
T095C 3603:154 JLINK_ReadMemU32(0xE0001038, 0x0001 Items, ...) -- CPU_ReadMem(4 bytes @ 0xE0001038) - Data: 00 02 00 00  returns 0x01 (0005ms, 22305ms total)
T095C 3603:159 JLINK_ReadMemU32(0xE0001048, 0x0001 Items, ...) -- CPU_ReadMem(4 bytes @ 0xE0001048) - Data: 00 00 00 00  returns 0x01 (0006ms, 22311ms total)
T095C 3603:165 JLINK_ReadMemU32(0xE0001058, 0x0001 Items, ...) -- CPU_ReadMem(4 bytes @ 0xE0001058) - Data: 00 00 00 00  returns 0x01 (0005ms, 22316ms total)
T095C 3603:170 JLINK_ReadReg(R0)  returns 0x00008010 (0001ms, 22317ms total)
T095C 3603:172 JLINK_ReadReg(R1)  returns 0x0000200C (0000ms, 22318ms total)
T095C 3603:176 JLINK_ReadReg(R2)  returns 0x00000270 (0001ms, 22320ms total)
T095C 3603:178 JLINK_ReadReg(R3)  returns 0x00000F42 (0001ms, 22322ms total)
T095C 3603:179 JLINK_ReadReg(R4)  returns 0x08000E84 (0001ms, 22323ms total)
T095C 3603:180 JLINK_ReadReg(R5)  returns 0x08000E84 (0002ms, 22325ms total)
T095C 3603:182 JLINK_ReadReg(R6)  returns 0x00000000 (0001ms, 22326ms total)
T095C 3603:183 JLINK_ReadReg(R7)  returns 0x00000000 (0001ms, 22327ms total)
T095C 3603:184 JLINK_ReadReg(R8)  returns 0x00000000 (0002ms, 22329ms total)
T095C 3603:187 JLINK_ReadReg(R9)  returns 0x20000160 (0001ms, 22331ms total)
T095C 3603:188 JLINK_ReadReg(R10)  returns 0x00000000 (0001ms, 22332ms total)
T095C 3603:190 JLINK_ReadReg(R11)  returns 0x00000000 (0001ms, 22334ms total)
T095C 3603:191 JLINK_ReadReg(R12)  returns 0x00000F00 (0001ms, 22335ms total)
T095C 3603:193 JLINK_ReadReg(R13 (SP))  returns 0x20000430 (0001ms, 22336ms total)
T095C 3603:194 JLINK_ReadReg(R14)  returns 0x08000E31 (0001ms, 22337ms total)
T095C 3603:195 JLINK_ReadReg(R15 (PC))  returns 0x080001B4 (0001ms, 22338ms total)
T095C 3603:197 JLINK_ReadReg(XPSR)  returns 0x61000000 (0001ms, 22340ms total)
T095C 3603:198 JLINK_ReadReg(MSP)  returns 0x20000430 (0001ms, 22341ms total)
T095C 3603:199 JLINK_ReadReg(PSP)  returns 0x20001000 (0001ms, 22342ms total)
T095C 3603:200 JLINK_ReadReg(CFBP)  returns 0x00000000 (0001ms, 22343ms total)
T1240 3603:203 JLINK_ReadMemEx(0x2000044C, 0x0004 Bytes, ..., AccessWidth = 33554432)Mis-aligned memory read: Address: 0x2000044C, NumBytes: 4, Alignment: 2 (Halfword-aligned)
  ***** Mis-aligned memory read: Address: 0x2000044C, NumBytes: 4, Alignment: 2 (Halfword-aligned) -- CPU_ReadMem(64 bytes @ 0x20000440) -- Updating C cache (64 bytes @ 0x20000440) -- Read from C cache (4 bytes @ 0x2000044C) - Data: 31 0E 00 08  returns 0x04 (0004ms, 22347ms total)
T1240 3603:208 JLINK_ReadMemEx(0x20000430, 0x0004 Bytes, ..., AccessWidth = 33554432)Mis-aligned memory read: Address: 0x20000430, NumBytes: 4, Alignment: 2 (Halfword-aligned)
  ***** Mis-aligned memory read: Address: 0x20000430, NumBytes: 4, Alignment: 2 (Halfword-aligned) -- CPU_ReadMem(64 bytes @ 0x20000400) -- Updating C cache (64 bytes @ 0x20000400) -- Read from C cache (4 bytes @ 0x20000430) - Data: 84 0E 00 08  returns 0x04 (0006ms, 22354ms total)
T1240 3603:214 JLINK_ReadMemEx(0x20000434, 0x0004 Bytes, ..., AccessWidth = 33554432)Mis-aligned memory read: Address: 0x20000434, NumBytes: 4, Alignment: 2 (Halfword-aligned)
  ***** Mis-aligned memory read: Address: 0x20000434, NumBytes: 4, Alignment: 2 (Halfword-aligned) -- Read from C cache (4 bytes @ 0x20000434) - Data: 84 0E 00 08  returns 0x04 (0003ms, 22357ms total)
T1240 3603:217 JLINK_ReadMemEx(0x20000438, 0x0004 Bytes, ..., AccessWidth = 33554432)Mis-aligned memory read: Address: 0x20000438, NumBytes: 4, Alignment: 2 (Halfword-aligned)
  ***** Mis-aligned memory read: Address: 0x20000438, NumBytes: 4, Alignment: 2 (Halfword-aligned) -- Read from C cache (4 bytes @ 0x20000438) - Data: 00 00 00 00  returns 0x04 (0004ms, 22361ms total)
T1240 3603:221 JLINK_ReadMemEx(0x2000043C, 0x0004 Bytes, ..., AccessWidth = 33554432)Mis-aligned memory read: Address: 0x2000043C, NumBytes: 4, Alignment: 2 (Halfword-aligned)
  ***** Mis-aligned memory read: Address: 0x2000043C, NumBytes: 4, Alignment: 2 (Halfword-aligned) -- Read from C cache (4 bytes @ 0x2000043C) - Data: 00 00 00 00  returns 0x04 (0003ms, 22364ms total)
T1240 3603:224 JLINK_ReadMemEx(0x20000440, 0x0004 Bytes, ..., AccessWidth = 33554432)Mis-aligned memory read: Address: 0x20000440, NumBytes: 4, Alignment: 2 (Halfword-aligned)
  ***** Mis-aligned memory read: Address: 0x20000440, NumBytes: 4, Alignment: 2 (Halfword-aligned) -- Read from C cache (4 bytes @ 0x20000440) - Data: 00 00 00 00  returns 0x04 (0002ms, 22366ms total)
T1240 3603:227 JLINK_ReadMemEx(0x20000444, 0x0004 Bytes, ..., AccessWidth = 33554432)Mis-aligned memory read: Address: 0x20000444, NumBytes: 4, Alignment: 2 (Halfword-aligned)
  ***** Mis-aligned memory read: Address: 0x20000444, NumBytes: 4, Alignment: 2 (Halfword-aligned) -- Read from C cache (4 bytes @ 0x20000444) - Data: 60 01 00 20  returns 0x04 (0002ms, 22369ms total)
T1240 3603:229 JLINK_ReadMemEx(0x20000448, 0x0004 Bytes, ..., AccessWidth = 33554432)Mis-aligned memory read: Address: 0x20000448, NumBytes: 4, Alignment: 2 (Halfword-aligned)
  ***** Mis-aligned memory read: Address: 0x20000448, NumBytes: 4, Alignment: 2 (Halfword-aligned) -- Read from C cache (4 bytes @ 0x20000448) - Data: 00 00 00 00  returns 0x04 (0003ms, 22372ms total)
T1240 3603:232 JLINK_ReadMemEx(0x2000044C, 0x0004 Bytes, ..., AccessWidth = 33554432)Mis-aligned memory read: Address: 0x2000044C, NumBytes: 4, Alignment: 2 (Halfword-aligned)
  ***** Mis-aligned memory read: Address: 0x2000044C, NumBytes: 4, Alignment: 2 (Halfword-aligned) -- Read from C cache (4 bytes @ 0x2000044C) - Data: 31 0E 00 08  returns 0x04 (0003ms, 22375ms total)
T1240 3603:247 JLINK_ReadMemU32(0xE0001004, 0x0001 Items, ...) -- CPU_ReadMem(4 bytes @ 0xE0001004) - Data: 12 21 00 00  returns 0x01 (0004ms, 22379ms total)
T1240 3603:255 JLINK_ReadMemEx(0x080001B4, 0x003C Bytes, ..., AccessWidth = 33554432)Mis-aligned memory read: Address: 0x080001B4, NumBytes: 60, Alignment: 2 (Halfword-aligned)
  ***** Mis-aligned memory read: Address: 0x080001B4, NumBytes: 60, Alignment: 2 (Halfword-aligned) -- CPU_ReadMem(128 bytes @ 0x08000180) -- Updating C cache (128 bytes @ 0x08000180) -- Read from C cache (60 bytes @ 0x080001B4) - Data: DF F8 88 90 4F F4 00 78 05 46 00 22 44 46 41 46 ...  returns 0x3C (0008ms, 22388ms total)
T1240 3603:264 JLINK_ReadMemEx(0x080001B4, 0x0002 Bytes, ..., AccessWidth = 33554432)Mis-aligned memory read: Address: 0x080001B4, NumBytes: 2, Alignment: 2 (Halfword-aligned)
  ***** Mis-aligned memory read: Address: 0x080001B4, NumBytes: 2, Alignment: 2 (Halfword-aligned) -- Read from C cache (2 bytes @ 0x080001B4) - Data: DF F8  returns 0x02 (0003ms, 22392ms total)
T1240 3603:267 JLINK_ReadMemEx(0x080001B6, 0x0002 Bytes, ..., AccessWidth = 33554432)Mis-aligned memory read: Address: 0x080001B6, NumBytes: 2, Alignment: 2 (Halfword-aligned)
  ***** Mis-aligned memory read: Address: 0x080001B6, NumBytes: 2, Alignment: 2 (Halfword-aligned) -- Read from C cache (2 bytes @ 0x080001B6) - Data: 88 90  returns 0x02 (0003ms, 22395ms total)
T1240 3603:270 JLINK_ReadMemEx(0x080001B8, 0x003C Bytes, ..., AccessWidth = 33554432)Mis-aligned memory read: Address: 0x080001B8, NumBytes: 60, Alignment: 2 (Halfword-aligned)
  ***** Mis-aligned memory read: Address: 0x080001B8, NumBytes: 60, Alignment: 2 (Halfword-aligned) -- Read from C cache (60 bytes @ 0x080001B8) - Data: 4F F4 00 78 05 46 00 22 44 46 41 46 4F 46 48 46 ...  returns 0x3C (0003ms, 22398ms total)
T1240 3603:274 JLINK_ReadMemEx(0x080001B8, 0x0002 Bytes, ..., AccessWidth = 33554432)Mis-aligned memory read: Address: 0x080001B8, NumBytes: 2, Alignment: 2 (Halfword-aligned)
  ***** Mis-aligned memory read: Address: 0x080001B8, NumBytes: 2, Alignment: 2 (Halfword-aligned) -- Read from C cache (2 bytes @ 0x080001B8) - Data: 4F F4  returns 0x02 (0003ms, 22402ms total)
T1240 3603:277 JLINK_ReadMemEx(0x080001BA, 0x0002 Bytes, ..., AccessWidth = 33554432)Mis-aligned memory read: Address: 0x080001BA, NumBytes: 2, Alignment: 2 (Halfword-aligned)
  ***** Mis-aligned memory read: Address: 0x080001BA, NumBytes: 2, Alignment: 2 (Halfword-aligned) -- Read from C cache (2 bytes @ 0x080001BA) - Data: 00 78  returns 0x02 (0003ms, 22405ms total)
T095C 3606:992 JLINK_ReadMemEx(0x080001B4, 0x0002 Bytes, ..., AccessWidth = 33554432)Mis-aligned memory read: Address: 0x080001B4, NumBytes: 2, Alignment: 2 (Halfword-aligned)
  ***** Mis-aligned memory read: Address: 0x080001B4, NumBytes: 2, Alignment: 2 (Halfword-aligned) -- Read from C cache (2 bytes @ 0x080001B4) - Data: DF F8  returns 0x02 (0023ms, 22428ms total)
T095C 3607:015 JLINK_Step() -- Read from C cache (2 bytes @ 0x080001B4) -- Read from C cache (2 bytes @ 0x080001B6) -- Not simulated -- CPU_WriteMem(4 bytes @ 0xE0002008) -- CPU_WriteMem(4 bytes @ 0xE000200C) -- CPU_WriteMem(4 bytes @ 0xE0002010) -- CPU_WriteMem(4 bytes @ 0xE0002014)  returns 0x00 (0029ms, 22457ms total)
T095C 3607:044 JLINK_ReadReg(R15 (PC))  returns 0x080001B8 (0000ms, 22457ms total)
T095C 3607:044 JLINK_ReadReg(XPSR)  returns 0x61000000 (0001ms, 22458ms total)
T095C 3607:045 JLINK_SetBPEx(Addr = 0x08000E3C, Type = 0xFFFFFFF2)  returns 0x0000000A (0000ms, 22458ms total)
T095C 3607:045 JLINK_SetBPEx(Addr = 0x080001B4, Type = 0xFFFFFFF2)  returns 0x0000000B (0000ms, 22458ms total)
T095C 3607:045 JLINK_SetBPEx(Addr = 0x08000234, Type = 0xFFFFFFF2)  returns 0x0000000C (0001ms, 22459ms total)
T095C 3607:046 JLINK_SetBPEx(Addr = 0x08000214, Type = 0xFFFFFFF2)  returns 0x0000000D (0000ms, 22459ms total)
T095C 3607:046 JLINK_Go() -- CPU_WriteMem(4 bytes @ 0xE0002000) -- CPU_WriteMem(4 bytes @ 0xE0002000) -- CPU_WriteMem(4 bytes @ 0xE0002000) -- CPU_WriteMem(4 bytes @ 0xE0002000) -- CPU_WriteMem(4 bytes @ 0xE0002008) -- CPU_WriteMem(4 bytes @ 0xE000200C) -- CPU_WriteMem(4 bytes @ 0xE0002010) -- CPU_WriteMem(4 bytes @ 0xE0002014) (0033ms, 22492ms total)
T095C 3607:180 JLINK_IsHalted()  returns TRUE (0012ms, 22504ms total)
T095C 3607:192 JLINK_Halt()  returns 0x00 (0000ms, 22492ms total)
T095C 3607:193 JLINK_IsHalted()  returns TRUE (0000ms, 22493ms total)
T095C 3607:193 JLINK_IsHalted()  returns TRUE (0000ms, 22493ms total)
T095C 3607:193 JLINK_IsHalted()  returns TRUE (0001ms, 22494ms total)
T095C 3607:194 JLINK_ReadReg(R15 (PC))  returns 0x08000214 (0000ms, 22493ms total)
T095C 3607:194 JLINK_ReadReg(XPSR)  returns 0x01000000 (0000ms, 22493ms total)
T095C 3607:194 JLINK_ClrBPEx(BPHandle = 0x0000000A)  returns 0x00 (0000ms, 22493ms total)
T095C 3607:195 JLINK_ClrBPEx(BPHandle = 0x0000000B)  returns 0x00 (0000ms, 22494ms total)
T095C 3607:195 JLINK_ClrBPEx(BPHandle = 0x0000000C)  returns 0x00 (0000ms, 22494ms total)
T095C 3607:195 JLINK_ClrBPEx(BPHandle = 0x0000000D)  returns 0x00 (0000ms, 22494ms total)
T095C 3607:195 JLINK_ReadMemU32(0xE000ED30, 0x0001 Items, ...) -- CPU_ReadMem(4 bytes @ 0xE000ED30) - Data: 03 00 00 00  returns 0x01 (0002ms, 22496ms total)
T095C 3607:197 JLINK_ReadMemU32(0xE0001028, 0x0001 Items, ...) -- CPU_ReadMem(4 bytes @ 0xE0001028) - Data: 00 00 00 00  returns 0x01 (0004ms, 22500ms total)
T095C 3607:201 JLINK_ReadMemU32(0xE0001038, 0x0001 Items, ...) -- CPU_ReadMem(4 bytes @ 0xE0001038) - Data: 00 02 00 00  returns 0x01 (0003ms, 22503ms total)
T095C 3607:204 JLINK_ReadMemU32(0xE0001048, 0x0001 Items, ...) -- CPU_ReadMem(4 bytes @ 0xE0001048) - Data: 00 00 00 00  returns 0x01 (0003ms, 22506ms total)
T095C 3607:207 JLINK_ReadMemU32(0xE0001058, 0x0001 Items, ...) -- CPU_ReadMem(4 bytes @ 0xE0001058) - Data: 00 00 00 00  returns 0x01 (0004ms, 22510ms total)
T095C 3607:211 JLINK_ReadReg(R0)  returns 0x40010800 (0000ms, 22510ms total)
T095C 3607:211 JLINK_ReadReg(R1)  returns 0x00000020 (0001ms, 22511ms total)
T095C 3607:212 JLINK_ReadReg(R2)  returns 0x00000001 (0000ms, 22511ms total)
T095C 3607:212 JLINK_ReadReg(R3)  returns 0x00000F42 (0000ms, 22511ms total)
T095C 3607:212 JLINK_ReadReg(R4)  returns 0x00000000 (0000ms, 22511ms total)
T095C 3607:212 JLINK_ReadReg(R5)  returns 0x00010020 (0001ms, 22512ms total)
T095C 3607:213 JLINK_ReadReg(R6)  returns 0x00000000 (0000ms, 22512ms total)
T095C 3607:213 JLINK_ReadReg(R7)  returns 0x40010800 (0000ms, 22512ms total)
T095C 3607:213 JLINK_ReadReg(R8)  returns 0x00000200 (0001ms, 22513ms total)
T095C 3607:214 JLINK_ReadReg(R9)  returns 0x40011000 (0000ms, 22513ms total)
T095C 3607:214 JLINK_ReadReg(R10)  returns 0x00000000 (0000ms, 22513ms total)
T095C 3607:214 JLINK_ReadReg(R11)  returns 0x00000000 (0000ms, 22513ms total)
T095C 3607:214 JLINK_ReadReg(R12)  returns 0x00000F00 (0001ms, 22514ms total)
T095C 3607:215 JLINK_ReadReg(R13 (SP))  returns 0x20000430 (0000ms, 22514ms total)
T095C 3607:215 JLINK_ReadReg(R14)  returns 0x08000213 (0000ms, 22514ms total)
T095C 3607:215 JLINK_ReadReg(R15 (PC))  returns 0x08000214 (0000ms, 22514ms total)
T095C 3607:215 JLINK_ReadReg(XPSR)  returns 0x01000000 (0001ms, 22515ms total)
T095C 3607:216 JLINK_ReadReg(MSP)  returns 0x20000430 (0000ms, 22515ms total)
T095C 3607:216 JLINK_ReadReg(PSP)  returns 0x20001000 (0000ms, 22515ms total)
T095C 3607:216 JLINK_ReadReg(CFBP)  returns 0x00000000 (0000ms, 22515ms total)
T1240 3607:223 JLINK_ReadMemEx(0x2000044C, 0x0004 Bytes, ..., AccessWidth = 33554432)Mis-aligned memory read: Address: 0x2000044C, NumBytes: 4, Alignment: 2 (Halfword-aligned)
  ***** Mis-aligned memory read: Address: 0x2000044C, NumBytes: 4, Alignment: 2 (Halfword-aligned) -- CPU_ReadMem(64 bytes @ 0x20000440) -- Updating C cache (64 bytes @ 0x20000440) -- Read from C cache (4 bytes @ 0x2000044C) - Data: 31 0E 00 08  returns 0x04 (0003ms, 22518ms total)
T1240 3607:226 JLINK_ReadMemEx(0x20000430, 0x0004 Bytes, ..., AccessWidth = 33554432)Mis-aligned memory read: Address: 0x20000430, NumBytes: 4, Alignment: 2 (Halfword-aligned)
  ***** Mis-aligned memory read: Address: 0x20000430, NumBytes: 4, Alignment: 2 (Halfword-aligned) -- CPU_ReadMem(64 bytes @ 0x20000400) -- Updating C cache (64 bytes @ 0x20000400) -- Read from C cache (4 bytes @ 0x20000430) - Data: 84 0E 00 08  returns 0x04 (0003ms, 22521ms total)
T1240 3607:229 JLINK_ReadMemEx(0x20000434, 0x0004 Bytes, ..., AccessWidth = 33554432)Mis-aligned memory read: Address: 0x20000434, NumBytes: 4, Alignment: 2 (Halfword-aligned)
  ***** Mis-aligned memory read: Address: 0x20000434, NumBytes: 4, Alignment: 2 (Halfword-aligned) -- Read from C cache (4 bytes @ 0x20000434) - Data: 84 0E 00 08  returns 0x04 (0000ms, 22521ms total)
T1240 3607:230 JLINK_ReadMemEx(0x20000438, 0x0004 Bytes, ..., AccessWidth = 33554432)Mis-aligned memory read: Address: 0x20000438, NumBytes: 4, Alignment: 2 (Halfword-aligned)
  ***** Mis-aligned memory read: Address: 0x20000438, NumBytes: 4, Alignment: 2 (Halfword-aligned) -- Read from C cache (4 bytes @ 0x20000438) - Data: 00 00 00 00  returns 0x04 (0000ms, 22522ms total)
T1240 3607:230 JLINK_ReadMemEx(0x2000043C, 0x0004 Bytes, ..., AccessWidth = 33554432)Mis-aligned memory read: Address: 0x2000043C, NumBytes: 4, Alignment: 2 (Halfword-aligned)
  ***** Mis-aligned memory read: Address: 0x2000043C, NumBytes: 4, Alignment: 2 (Halfword-aligned) -- Read from C cache (4 bytes @ 0x2000043C) - Data: 00 00 00 00  returns 0x04 (0001ms, 22523ms total)
T1240 3607:231 JLINK_ReadMemEx(0x20000440, 0x0004 Bytes, ..., AccessWidth = 33554432)Mis-aligned memory read: Address: 0x20000440, NumBytes: 4, Alignment: 2 (Halfword-aligned)
  ***** Mis-aligned memory read: Address: 0x20000440, NumBytes: 4, Alignment: 2 (Halfword-aligned) -- Read from C cache (4 bytes @ 0x20000440) - Data: 00 00 00 00  returns 0x04 (0000ms, 22523ms total)
T1240 3607:232 JLINK_ReadMemEx(0x20000444, 0x0004 Bytes, ..., AccessWidth = 33554432)Mis-aligned memory read: Address: 0x20000444, NumBytes: 4, Alignment: 2 (Halfword-aligned)
  ***** Mis-aligned memory read: Address: 0x20000444, NumBytes: 4, Alignment: 2 (Halfword-aligned) -- Read from C cache (4 bytes @ 0x20000444) - Data: 60 01 00 20  returns 0x04 (0000ms, 22524ms total)
T1240 3607:232 JLINK_ReadMemEx(0x20000448, 0x0004 Bytes, ..., AccessWidth = 33554432)Mis-aligned memory read: Address: 0x20000448, NumBytes: 4, Alignment: 2 (Halfword-aligned)
  ***** Mis-aligned memory read: Address: 0x20000448, NumBytes: 4, Alignment: 2 (Halfword-aligned) -- Read from C cache (4 bytes @ 0x20000448) - Data: 00 00 00 00  returns 0x04 (0001ms, 22525ms total)
T1240 3607:233 JLINK_ReadMemEx(0x2000044C, 0x0004 Bytes, ..., AccessWidth = 33554432)Mis-aligned memory read: Address: 0x2000044C, NumBytes: 4, Alignment: 2 (Halfword-aligned)
  ***** Mis-aligned memory read: Address: 0x2000044C, NumBytes: 4, Alignment: 2 (Halfword-aligned) -- Read from C cache (4 bytes @ 0x2000044C) - Data: 31 0E 00 08  returns 0x04 (0001ms, 22526ms total)
T1240 3607:234 JLINK_ReadMemU32(0xE0001004, 0x0001 Items, ...) -- CPU_ReadMem(4 bytes @ 0xE0001004) - Data: A9 21 00 00  returns 0x01 (0005ms, 22531ms total)
T095C 3608:887 JLINK_ReadMemEx(0x08000214, 0x0002 Bytes, ..., AccessWidth = 33554432)Mis-aligned memory read: Address: 0x08000214, NumBytes: 2, Alignment: 2 (Halfword-aligned)
  ***** Mis-aligned memory read: Address: 0x08000214, NumBytes: 2, Alignment: 2 (Halfword-aligned) -- CPU_ReadMem(64 bytes @ 0x08000200) -- Updating C cache (64 bytes @ 0x08000200) -- Read from C cache (2 bytes @ 0x08000214) - Data: 01 20  returns 0x02 (0025ms, 22556ms total)
T095C 3608:912 JLINK_Step() -- Read from C cache (2 bytes @ 0x08000214) -- Simulated  returns 0x00 (0003ms, 22559ms total)
T095C 3608:915 JLINK_ReadReg(R15 (PC))  returns 0x08000216 (0001ms, 22560ms total)
T095C 3608:916 JLINK_ReadReg(XPSR)  returns 0x01000000 (0000ms, 22560ms total)
T095C 3608:916 JLINK_SetBPEx(Addr = 0x08000E3C, Type = 0xFFFFFFF2)  returns 0x0000000E (0000ms, 22560ms total)
T095C 3608:916 JLINK_SetBPEx(Addr = 0x080001B4, Type = 0xFFFFFFF2)  returns 0x0000000F (0000ms, 22560ms total)
T095C 3608:917 JLINK_SetBPEx(Addr = 0x08000234, Type = 0xFFFFFFF2)  returns 0x00000010 (0000ms, 22561ms total)
T095C 3608:917 JLINK_SetBPEx(Addr = 0x08000214, Type = 0xFFFFFFF2)  returns 0x00000011 (0000ms, 22561ms total)
T095C 3608:917 JLINK_Go() -- CPU_WriteMem(4 bytes @ 0xE0002000) -- CPU_WriteMem(4 bytes @ 0xE0002000) -- CPU_WriteMem(4 bytes @ 0xE0002000) -- CPU_WriteMem(4 bytes @ 0xE0002000) -- CPU_WriteMem(4 bytes @ 0xE0001004) (0025ms, 22586ms total)
T095C 3609:042 JLINK_IsHalted()  returns TRUE (0014ms, 22600ms total)
T095C 3609:057 JLINK_Halt()  returns 0x00 (0000ms, 22586ms total)
T095C 3609:057 JLINK_IsHalted()  returns TRUE (0002ms, 22588ms total)
T095C 3609:060 JLINK_IsHalted()  returns TRUE (0001ms, 22587ms total)
T095C 3609:061 JLINK_IsHalted()  returns TRUE (0001ms, 22587ms total)
T095C 3609:062 JLINK_ReadReg(R15 (PC))  returns 0x08000214 (0002ms, 22588ms total)
T095C 3609:064 JLINK_ReadReg(XPSR)  returns 0x01000000 (0001ms, 22589ms total)
T095C 3609:065 JLINK_ClrBPEx(BPHandle = 0x0000000E)  returns 0x00 (0002ms, 22591ms total)
T095C 3609:067 JLINK_ClrBPEx(BPHandle = 0x0000000F)  returns 0x00 (0001ms, 22592ms total)
T095C 3609:068 JLINK_ClrBPEx(BPHandle = 0x00000010)  returns 0x00 (0001ms, 22593ms total)
T095C 3609:069 JLINK_ClrBPEx(BPHandle = 0x00000011)  returns 0x00 (0001ms, 22594ms total)
T095C 3609:071 JLINK_ReadMemU32(0xE000ED30, 0x0001 Items, ...) -- CPU_ReadMem(4 bytes @ 0xE000ED30) - Data: 03 00 00 00  returns 0x01 (0004ms, 22599ms total)
T095C 3609:076 JLINK_ReadMemU32(0xE0001028, 0x0001 Items, ...) -- CPU_ReadMem(4 bytes @ 0xE0001028) - Data: 00 00 00 00  returns 0x01 (0004ms, 22604ms total)
T095C 3609:081 JLINK_ReadMemU32(0xE0001038, 0x0001 Items, ...) -- CPU_ReadMem(4 bytes @ 0xE0001038) - Data: 00 02 00 00  returns 0x01 (0005ms, 22610ms total)
T095C 3609:087 JLINK_ReadMemU32(0xE0001048, 0x0001 Items, ...) -- CPU_ReadMem(4 bytes @ 0xE0001048) - Data: 00 00 00 00  returns 0x01 (0006ms, 22617ms total)
T095C 3609:093 JLINK_ReadMemU32(0xE0001058, 0x0001 Items, ...) -- CPU_ReadMem(4 bytes @ 0xE0001058) - Data: 00 00 00 00  returns 0x01 (0005ms, 22622ms total)
T095C 3609:098 JLINK_ReadReg(R0)  returns 0x40010800 (0001ms, 22623ms total)
T095C 3609:100 JLINK_ReadReg(R1)  returns 0x00000020 (0001ms, 22625ms total)
T095C 3609:101 JLINK_ReadReg(R2)  returns 0x00000001 (0001ms, 22626ms total)
T095C 3609:102 JLINK_ReadReg(R3)  returns 0x00000F42 (0001ms, 22627ms total)
T095C 3609:104 JLINK_ReadReg(R4)  returns 0x00000001 (0001ms, 22629ms total)
T095C 3609:105 JLINK_ReadReg(R5)  returns 0x00020040 (0002ms, 22631ms total)
T095C 3609:107 JLINK_ReadReg(R6)  returns 0x00000000 (0001ms, 22632ms total)
T095C 3609:109 JLINK_ReadReg(R7)  returns 0x40010800 (0000ms, 22633ms total)
T095C 3609:109 JLINK_ReadReg(R8)  returns 0x00000200 (0001ms, 22634ms total)
T095C 3609:111 JLINK_ReadReg(R9)  returns 0x40011000 (0001ms, 22636ms total)
T095C 3609:112 JLINK_ReadReg(R10)  returns 0x00000000 (0001ms, 22637ms total)
T095C 3609:114 JLINK_ReadReg(R11)  returns 0x00000000 (0001ms, 22639ms total)
T095C 3609:115 JLINK_ReadReg(R12)  returns 0x00000F00 (0001ms, 22640ms total)
T095C 3609:117 JLINK_ReadReg(R13 (SP))  returns 0x20000430 (0001ms, 22642ms total)
T095C 3609:118 JLINK_ReadReg(R14)  returns 0x08000213 (0001ms, 22643ms total)
T095C 3609:119 JLINK_ReadReg(R15 (PC))  returns 0x08000214 (0001ms, 22644ms total)
T095C 3609:121 JLINK_ReadReg(XPSR)  returns 0x01000000 (0001ms, 22646ms total)
T095C 3609:122 JLINK_ReadReg(MSP)  returns 0x20000430 (0001ms, 22647ms total)
T095C 3609:123 JLINK_ReadReg(PSP)  returns 0x20001000 (0001ms, 22648ms total)
T095C 3609:124 JLINK_ReadReg(CFBP)  returns 0x00000000 (0001ms, 22649ms total)
T1240 3609:126 JLINK_ReadMemEx(0x2000044C, 0x0004 Bytes, ..., AccessWidth = 33554432)Mis-aligned memory read: Address: 0x2000044C, NumBytes: 4, Alignment: 2 (Halfword-aligned)
  ***** Mis-aligned memory read: Address: 0x2000044C, NumBytes: 4, Alignment: 2 (Halfword-aligned) -- CPU_ReadMem(64 bytes @ 0x20000440) -- Updating C cache (64 bytes @ 0x20000440) -- Read from C cache (4 bytes @ 0x2000044C) - Data: 31 0E 00 08  returns 0x04 (0005ms, 22655ms total)
T1240 3609:131 JLINK_ReadMemEx(0x20000430, 0x0004 Bytes, ..., AccessWidth = 33554432)Mis-aligned memory read: Address: 0x20000430, NumBytes: 4, Alignment: 2 (Halfword-aligned)
  ***** Mis-aligned memory read: Address: 0x20000430, NumBytes: 4, Alignment: 2 (Halfword-aligned) -- CPU_ReadMem(64 bytes @ 0x20000400) -- Updating C cache (64 bytes @ 0x20000400) -- Read from C cache (4 bytes @ 0x20000430) - Data: 84 0E 00 08  returns 0x04 (0005ms, 22660ms total)
T1240 3609:136 JLINK_ReadMemEx(0x20000434, 0x0004 Bytes, ..., AccessWidth = 33554432)Mis-aligned memory read: Address: 0x20000434, NumBytes: 4, Alignment: 2 (Halfword-aligned)
  ***** Mis-aligned memory read: Address: 0x20000434, NumBytes: 4, Alignment: 2 (Halfword-aligned) -- Read from C cache (4 bytes @ 0x20000434) - Data: 84 0E 00 08  returns 0x04 (0002ms, 22662ms total)
T1240 3609:139 JLINK_ReadMemEx(0x20000438, 0x0004 Bytes, ..., AccessWidth = 33554432)Mis-aligned memory read: Address: 0x20000438, NumBytes: 4, Alignment: 2 (Halfword-aligned)
  ***** Mis-aligned memory read: Address: 0x20000438, NumBytes: 4, Alignment: 2 (Halfword-aligned) -- Read from C cache (4 bytes @ 0x20000438) - Data: 00 00 00 00  returns 0x04 (0002ms, 22665ms total)
T1240 3609:141 JLINK_ReadMemEx(0x2000043C, 0x0004 Bytes, ..., AccessWidth = 33554432)Mis-aligned memory read: Address: 0x2000043C, NumBytes: 4, Alignment: 2 (Halfword-aligned)
  ***** Mis-aligned memory read: Address: 0x2000043C, NumBytes: 4, Alignment: 2 (Halfword-aligned) -- Read from C cache (4 bytes @ 0x2000043C) - Data: 00 00 00 00  returns 0x04 (0002ms, 22667ms total)
T1240 3609:144 JLINK_ReadMemEx(0x20000440, 0x0004 Bytes, ..., AccessWidth = 33554432)Mis-aligned memory read: Address: 0x20000440, NumBytes: 4, Alignment: 2 (Halfword-aligned)
  ***** Mis-aligned memory read: Address: 0x20000440, NumBytes: 4, Alignment: 2 (Halfword-aligned) -- Read from C cache (4 bytes @ 0x20000440) - Data: 00 00 00 00  returns 0x04 (0002ms, 22670ms total)
T1240 3609:146 JLINK_ReadMemEx(0x20000444, 0x0004 Bytes, ..., AccessWidth = 33554432)Mis-aligned memory read: Address: 0x20000444, NumBytes: 4, Alignment: 2 (Halfword-aligned)
  ***** Mis-aligned memory read: Address: 0x20000444, NumBytes: 4, Alignment: 2 (Halfword-aligned) -- Read from C cache (4 bytes @ 0x20000444) - Data: 60 01 00 20  returns 0x04 (0002ms, 22672ms total)
T1240 3609:148 JLINK_ReadMemEx(0x20000448, 0x0004 Bytes, ..., AccessWidth = 33554432)Mis-aligned memory read: Address: 0x20000448, NumBytes: 4, Alignment: 2 (Halfword-aligned)
  ***** Mis-aligned memory read: Address: 0x20000448, NumBytes: 4, Alignment: 2 (Halfword-aligned) -- Read from C cache (4 bytes @ 0x20000448) - Data: 00 00 00 00  returns 0x04 (0003ms, 22675ms total)
T1240 3609:151 JLINK_ReadMemEx(0x2000044C, 0x0004 Bytes, ..., AccessWidth = 33554432)Mis-aligned memory read: Address: 0x2000044C, NumBytes: 4, Alignment: 2 (Halfword-aligned)
  ***** Mis-aligned memory read: Address: 0x2000044C, NumBytes: 4, Alignment: 2 (Halfword-aligned) -- Read from C cache (4 bytes @ 0x2000044C) - Data: 31 0E 00 08  returns 0x04 (0003ms, 22678ms total)
T1240 3609:155 JLINK_ReadMemU32(0xE0001004, 0x0001 Items, ...) -- CPU_ReadMem(4 bytes @ 0xE0001004) - Data: E4 4A 02 00  returns 0x01 (0003ms, 22681ms total)
T095C 3609:896 JLINK_ReadMemEx(0x08000214, 0x0002 Bytes, ..., AccessWidth = 33554432)Mis-aligned memory read: Address: 0x08000214, NumBytes: 2, Alignment: 2 (Halfword-aligned)
  ***** Mis-aligned memory read: Address: 0x08000214, NumBytes: 2, Alignment: 2 (Halfword-aligned) -- CPU_ReadMem(64 bytes @ 0x08000200) -- Updating C cache (64 bytes @ 0x08000200) -- Read from C cache (2 bytes @ 0x08000214) - Data: 01 20  returns 0x02 (0022ms, 22704ms total)
T095C 3609:918 JLINK_Step() -- Read from C cache (2 bytes @ 0x08000214) -- Simulated  returns 0x00 (0003ms, 22707ms total)
T095C 3609:921 JLINK_ReadReg(R15 (PC))  returns 0x08000216 (0001ms, 22708ms total)
T095C 3609:922 JLINK_ReadReg(XPSR)  returns 0x01000000 (0000ms, 22708ms total)
T095C 3609:922 JLINK_SetBPEx(Addr = 0x08000E3C, Type = 0xFFFFFFF2)  returns 0x00000012 (0001ms, 22709ms total)
T095C 3609:923 JLINK_SetBPEx(Addr = 0x080001B4, Type = 0xFFFFFFF2)  returns 0x00000013 (0000ms, 22709ms total)
T095C 3609:923 JLINK_SetBPEx(Addr = 0x08000234, Type = 0xFFFFFFF2)  returns 0x00000014 (0000ms, 22709ms total)
T095C 3609:923 JLINK_SetBPEx(Addr = 0x08000214, Type = 0xFFFFFFF2)  returns 0x00000015 (0001ms, 22710ms total)
T095C 3609:924 JLINK_Go() -- CPU_WriteMem(4 bytes @ 0xE0002000) -- CPU_WriteMem(4 bytes @ 0xE0002000) -- CPU_WriteMem(4 bytes @ 0xE0002000) -- CPU_WriteMem(4 bytes @ 0xE0002000) -- CPU_WriteMem(4 bytes @ 0xE0001004) (0027ms, 22737ms total)
T095C 3610:051 JLINK_IsHalted()  returns TRUE (0014ms, 22751ms total)
T095C 3610:066 JLINK_Halt()  returns 0x00 (0001ms, 22738ms total)
T095C 3610:068 JLINK_IsHalted()  returns TRUE (0001ms, 22740ms total)
T095C 3610:069 JLINK_IsHalted()  returns TRUE (0001ms, 22740ms total)
T095C 3610:071 JLINK_IsHalted()  returns TRUE (0001ms, 22740ms total)
T095C 3610:072 JLINK_ReadReg(R15 (PC))  returns 0x08000214 (0001ms, 22740ms total)
T095C 3610:073 JLINK_ReadReg(XPSR)  returns 0x01000000 (0001ms, 22741ms total)
T095C 3610:074 JLINK_ClrBPEx(BPHandle = 0x00000012)  returns 0x00 (0002ms, 22743ms total)
T095C 3610:076 JLINK_ClrBPEx(BPHandle = 0x00000013)  returns 0x00 (0001ms, 22744ms total)
T095C 3610:077 JLINK_ClrBPEx(BPHandle = 0x00000014)  returns 0x00 (0002ms, 22746ms total)
T095C 3610:079 JLINK_ClrBPEx(BPHandle = 0x00000015)  returns 0x00 (0001ms, 22747ms total)
T095C 3610:081 JLINK_ReadMemU32(0xE000ED30, 0x0001 Items, ...) -- CPU_ReadMem(4 bytes @ 0xE000ED30) - Data: 03 00 00 00  returns 0x01 (0006ms, 22754ms total)
T095C 3610:087 JLINK_ReadMemU32(0xE0001028, 0x0001 Items, ...) -- CPU_ReadMem(4 bytes @ 0xE0001028) - Data: 00 00 00 00  returns 0x01 (0005ms, 22759ms total)
T095C 3610:092 JLINK_ReadMemU32(0xE0001038, 0x0001 Items, ...) -- CPU_ReadMem(4 bytes @ 0xE0001038) - Data: 00 02 00 00  returns 0x01 (0005ms, 22764ms total)
T095C 3610:097 JLINK_ReadMemU32(0xE0001048, 0x0001 Items, ...) -- CPU_ReadMem(4 bytes @ 0xE0001048) - Data: 00 00 00 00  returns 0x01 (0005ms, 22769ms total)
T095C 3610:103 JLINK_ReadMemU32(0xE0001058, 0x0001 Items, ...) -- CPU_ReadMem(4 bytes @ 0xE0001058) - Data: 00 00 00 00  returns 0x01 (0004ms, 22774ms total)
T095C 3610:107 JLINK_ReadReg(R0)  returns 0x40010800 (0001ms, 22775ms total)
T095C 3610:109 JLINK_ReadReg(R1)  returns 0x00000020 (0002ms, 22778ms total)
T095C 3610:111 JLINK_ReadReg(R2)  returns 0x00000001 (0001ms, 22779ms total)
T095C 3610:113 JLINK_ReadReg(R3)  returns 0x00000F42 (0001ms, 22781ms total)
T095C 3610:114 JLINK_ReadReg(R4)  returns 0x00000002 (0001ms, 22782ms total)
T095C 3610:115 JLINK_ReadReg(R5)  returns 0x00040080 (0001ms, 22783ms total)
T095C 3610:116 JLINK_ReadReg(R6)  returns 0x00000000 (0001ms, 22784ms total)
T095C 3610:117 JLINK_ReadReg(R7)  returns 0x40010800 (0001ms, 22785ms total)
T095C 3610:119 JLINK_ReadReg(R8)  returns 0x00000200 (0001ms, 22787ms total)
T095C 3610:120 JLINK_ReadReg(R9)  returns 0x40011000 (0001ms, 22788ms total)
T095C 3610:121 JLINK_ReadReg(R10)  returns 0x00000000 (0001ms, 22789ms total)
T095C 3610:123 JLINK_ReadReg(R11)  returns 0x00000000 (0001ms, 22791ms total)
T095C 3610:124 JLINK_ReadReg(R12)  returns 0x00000F00 (0001ms, 22792ms total)
T095C 3610:125 JLINK_ReadReg(R13 (SP))  returns 0x20000430 (0001ms, 22793ms total)
T095C 3610:126 JLINK_ReadReg(R14)  returns 0x08000213 (0001ms, 22794ms total)
T095C 3610:127 JLINK_ReadReg(R15 (PC))  returns 0x08000214 (0002ms, 22796ms total)
T095C 3610:129 JLINK_ReadReg(XPSR)  returns 0x01000000 (0001ms, 22797ms total)
